#  HZ   S   MA   R     50.00 
! Rohde & Schwarz Vector Network Analyzer 
! Rohde-Schwarz,ZNB8-4Port,1311601044101622,2.94
! Created: UTC 3/5/2021, 10:33:13 AM
! freq[Hz]                mag:S11                 ang:S11                 mag:S12                 ang:S12                 mag:S13                 ang:S13                 mag:S14                 ang:S14
!                         mag:S21                 ang:S21                 mag:S22                 ang:S22                 mag:S23                 ang:S23                 mag:S24                 ang:S24
!                         mag:S31                 ang:S31                 mag:S32                 ang:S32                 mag:S33                 ang:S33                 mag:S34                 ang:S34
!                         mag:S41                 ang:S41                 mag:S42                 ang:S42                 mag:S43                 ang:S43                 mag:S44                 ang:S44
! 
 9.000000000000000E3     6.647991607394560E-3   -1.520392389462725E2     9.994438164025367E-1    5.254550519420145E-1    1.587903081894653E-3   -8.697492714262474E1     1.607058983526277E-3    9.288932342473129E1
                         9.999412687092341E-1    1.719524747673975E-1    5.526171247751565E-3   -1.281635352219242E2     1.579206287437996E-3    9.223249838369780E1     1.575813984278150E-3   -8.645911549500752E1
                         1.649662785870558E-3   -9.013597479937043E1     1.679808073975099E-3    9.238877667597680E1     2.447593891518981E-3   -1.458641820107690E2     9.990050610098997E-1    4.151455148042497E-1
                         1.636659755401767E-3    9.087826723417757E1     1.608587428865396E-3   -8.889680605266959E1     1.001026028272019       2.217375858356425E-1    3.334614420021706E-3   -1.426517284701131E2

 9.105174363669432E3     6.646433567680177E-3   -1.518717826342212E2     9.992352109972216E-1    5.082453689033182E-1    1.652237436486846E-3   -8.896177418631189E1     1.673596984946828E-3    9.341877053755955E1
                         1.000112415204301       1.571522512309322E-1    5.649295107045520E-3   -1.292293100107868E2     1.549064414605169E-3    8.941073239662995E1     1.681793104083092E-3   -8.835694865903665E1
                         1.609762263722777E-3   -8.941258799840908E1     1.678083058348848E-3    9.301408405119068E1     3.396056065824054E-3   -1.627677567391735E2     9.989079320059283E-1    3.807409482124719E-1
                         1.595939796181762E-3    9.244780443751347E1     1.636702366396857E-3   -8.985035074695664E1     1.000583326933669       1.840990170935936E-1    3.321448325711858E-3   -1.342609610570739E2

 9.211577799202571E3     6.373932195100133E-3   -1.488994569690323E2     9.994275500754055E-1    5.008763975594416E-1    1.675708851916232E-3   -8.834745521415969E1     1.678400662059291E-3    9.038935205382131E1
                         9.999582818134810E-1    1.459456777917523E-1    5.538425102558363E-3   -1.352009324553465E2     1.637726834336061E-3    9.169971767179166E1     1.712930952876806E-3   -8.942693282410451E1
                         1.665295779076456E-3   -9.016659662657432E1     1.717563775744650E-3    8.903193989627563E1     3.591976073662714E-3   -1.711791789651749E2     9.987633781120064E-1    3.672111112472294E-1
                         1.564370185174382E-3    9.179987414571282E1     1.662110516924683E-3   -8.786313555280108E1     1.000302818543799       1.650335597914340E-1    3.266075346656364E-3   -1.373108725308910E2

 9.319224669582862E3     6.361447749180538E-3   -1.533121267815419E2     9.991396869002555E-1    4.817144891830796E-1    1.701660528833682E-3   -8.933380729832972E1     1.659604695139763E-3    9.135047102805467E1
                         9.999060154733892E-1    1.394603490322519E-1    5.463593330272723E-3   -1.340147043324535E2     1.620183479653691E-3    9.072387847354432E1     1.641789928393056E-3   -8.680664737864527E1
                         1.666676814206646E-3   -9.077028583204438E1     1.729911002353783E-3    9.183363054583485E1     4.134204156984404E-3   -1.740448099016850E2     9.986592143721703E-1    3.570713607392483E-1
                         1.709962557202082E-3    9.114487570907565E1     1.652187823018445E-3   -8.866740026262887E1     1.000091079580383       1.631766130038289E-1    2.901006479734474E-3   -1.452510833010375E2

 9.428129505640191E3     6.347471235171593E-3   -1.537258741161603E2     9.992067730134772E-1    4.745013761118948E-1    1.648185435659161E-3   -8.835656186800227E1     1.718635995380055E-3    9.224679882498552E1
                         9.997997497797768E-1    1.301036374737674E-1    5.250032146523702E-3   -1.377269686881390E2     1.721682728163948E-3    9.047650420684947E1     1.741611430315548E-3   -8.615234702599959E1
                         1.667623818667938E-3   -9.023050850422818E1     1.779061146515918E-3    8.994397791133066E1     4.072522684196576E-3   -1.783885585691374E2     9.985638143573651E-1    3.395816973548905E-1
                         1.668435616132623E-3    9.091028367749470E1     1.739609924957527E-3   -8.833016301593224E1     9.999949753165558E-1    1.493854069233696E-1    2.932063232649240E-3   -1.450280457401370E2

 9.538307008012271E3     5.874643550294940E-3   -1.579386139681997E2     9.990765525474876E-1    4.542566481997069E-1    1.711364818222290E-3   -8.894149692278899E1     1.736298985944968E-3    9.184786412511639E1
                         9.996573946107885E-1    1.280644990207579E-1    5.575124987199071E-3   -1.404972993618404E2     1.744004079227365E-3    9.052537587556627E1     1.736814421740824E-3   -8.817638423189425E1
                         1.724604443256389E-3   -9.125772350283711E1     1.783647687732291E-3    9.166671185516690E1     3.991529451798484E-3   -1.796451105676553E2     9.986091954079728E-1    3.352273880828873E-1
                         1.722492636983119E-3    8.984035324206957E1     1.711753824451335E-3   -9.089369488404493E1     9.999660332063954E-1    1.373860444790884E-1    2.809395757296822E-3   -1.483128666835142E2

 9.649772049129102E3     5.958219737395016E-3   -1.584340872985869E2     9.990408157969108E-1    4.420364235142736E-1    1.736172028368170E-3   -8.830900275274792E1     1.716379277054635E-3    9.256614121924598E1
                         9.996445756898984E-1    1.090736303846445E-1    5.338613326217342E-3   -1.414692045033069E2     1.741197247962855E-3    8.936735091445671E1     1.780921407438374E-3   -8.705767411773915E1
                         1.691368596286506E-3   -8.861640193536715E1     1.784900000292700E-3    9.027129291821507E1     4.144684088682972E-3   -1.791540545303746E2     9.984717000842281E-1    3.247681676551046E-1
                         1.714265929392983E-3    9.225677541389827E1     1.754389588792496E-3   -8.869760541508168E1     9.997715238611222E-1    1.294017384953139E-1    2.873341518128186E-3   -1.545235052363240E2

 9.762539675220462E3     5.922805017934407E-3   -1.564990665290782E2     9.991024079354761E-1    4.152055154633275E-1    1.765829847964520E-3   -8.788580174241389E1     1.769631932948854E-3    9.249486575558740E1
                         9.995215655754082E-1    1.032243511115040E-1    5.259262172143474E-3   -1.429104577741055E2     1.791675453971232E-3    9.239870516071696E1     1.785077013006607E-3   -8.992074957845574E1
                         1.710612282788583E-3   -8.959476505047110E1     1.858558067426461E-3    9.092091685669068E1     4.159826971169269E-3    1.758856574649138E2     9.985853525014139E-1    3.140788651537656E-1
                         1.704456701417564E-3    9.070461072885058E1     1.748357563387435E-3   -8.948346760916056E1     9.997856904876753E-1    1.124180474415198E-1    2.695808623838011E-3   -1.541994928158360E2

 9.876625108347018E3     5.831421183892132E-3   -1.565500748724296E2     9.989833748131012E-1    4.148352615169204E-1    1.796577894242693E-3   -8.790313626191316E1     1.788872819996461E-3    9.208022563159338E1
                         9.994516132281835E-1    9.054990000738666E-2    5.171632038584993E-3   -1.470278418015205E2     1.794350741893557E-3    9.257383684791044E1     1.806200123910511E-3   -8.733149663250453E1
                         1.761961736061782E-3   -8.968773092797360E1     1.798157302824911E-3    9.158663543451894E1     4.142098583708117E-3    1.759565549162905E2     9.985761267534912E-1    3.083078136951032E-1
                         1.800682297438437E-3    9.214935191431175E1     1.779266226723288E-3   -8.946643095104045E1     9.996912171057800E-1    1.080908604315554E-1    2.849460876790947E-3   -1.596386254395743E2

 9.992043748455011E3     5.814431308949873E-3   -1.596854614561810E2     9.988667327237846E-1    4.011041201492587E-1    1.800578712725425E-3   -8.719316521841027E1     1.779041648237480E-3    9.217867973273275E1
                         9.992610913901269E-1    8.487304014396746E-2    4.990174253168746E-3   -1.479748355292321E2     1.748873201505684E-3    9.148636037769580E1     1.808175179922600E-3   -8.796018029099606E1
                         1.781980935340708E-3   -8.929061968665766E1     1.853122774651438E-3    9.045077335532318E1     4.093903829803906E-3    1.783575755573052E2     9.985434037533124E-1    2.839313944588452E-1
                         1.778270962779813E-3    9.047902678148354E1     1.767202234802803E-3   -8.899227456861439E1     9.997403291342225E-1    9.481414030169967E-2    2.949549607557331E-3   -1.644990356375970E2

 1.010881117545512E4     5.559099657280482E-3   -1.612011855735605E2     9.988184510103801E-1    4.006066297498309E-1    1.880170644637182E-3   -8.793013587434973E1     1.801298886800314E-3    9.198386042276361E1
                         9.991740647566609E-1    7.218958333259985E-2    5.127887437606114E-3   -1.517656646126686E2     1.840520243742690E-3    9.014671020145910E1     1.823282917390199E-3   -8.865320018995412E1
                         1.843778726905971E-3   -8.974763768180590E1     1.887121473716789E-3    9.091492726508545E1     4.205484580907462E-3    1.720839529369889E2     9.984451802106437E-1    2.805488694839042E-1
                         1.806089559097724E-3    9.252056231458802E1     1.828266616763682E-3   -8.769612203691943E1     9.992549861276179E-1    9.140155536505530E-2    3.066555438660823E-3   -1.651101984856786E2

 1.022694315132546E4     5.332558630757464E-3   -1.620022248592063E2     9.989479855755188E-1    3.791090367819871E-1    1.898521030060253E-3   -8.893107590654638E1     1.890879357828389E-3    9.216226255570746E1
                         9.991399747320752E-1    7.182705864933824E-2    5.186597855604468E-3   -1.513651645405478E2     1.872904111351524E-3    9.284044457811152E1     1.877682026418087E-3   -8.764658153633313E1
                         1.855281552570241E-3   -9.006903669310476E1     1.890075139751134E-3    8.991695042644662E1     4.522997812159569E-3    1.708654029482161E2     9.984643684425938E-1    2.746261675821257E-1
                         1.832057578300727E-3    9.156180985152885E1     1.872493583711483E-3   -8.890620364118522E1     9.993245388841651E-1    7.607710715853011E-2    2.698677286990545E-3   -1.667682514134571E2

 1.034645562223924E4     5.452054076132060E-3   -1.642593683683891E2     9.988731527703427E-1    3.692742404887733E-1    1.884234100833580E-3   -8.815844595905388E1     1.819054067859442E-3    9.246764486752687E1
                         9.989899836535664E-1    6.635792399587391E-2    5.139318767276128E-3   -1.549686472578496E2     1.886943782877507E-3    9.174498074814548E1     1.860360491943920E-3   -8.862783297670146E1
                         1.847061294565646E-3   -9.129971280378453E1     1.924339734454647E-3    9.017945258943615E1     4.160148050119213E-3    1.701197448033654E2     9.984627787419560E-1    2.556302785088893E-1
                         1.859478486032937E-3    9.012770983091396E1     1.836676973142492E-3   -8.833658859433903E1     9.995052356520704E-1    6.846934747189071E-2    2.836988709846291E-3   -1.748892342964870E2

 1.046736472071737E4     5.213972190392341E-3   -1.671662307891248E2     9.988197899572098E-1    3.616550548592870E-1    1.875326970160479E-3   -8.877404731372161E1     1.886371143910373E-3    9.169868211445593E1
                         9.990451474345364E-1    5.199429163327082E-2    4.887634466253366E-3   -1.580043058437935E2     1.883904905720778E-3    8.964574377687642E1     1.892036716588103E-3   -8.838159094100264E1
                         1.895334924966748E-3   -9.022716170902443E1     1.950731272888635E-3    9.077616846734367E1     4.392267125691573E-3    1.681780809114384E2     9.983739294720135E-1    2.692318378437787E-1
                         1.886233189634644E-3    9.001302714441680E1     1.827050471887186E-3   -8.827505080570786E1     9.992534610358002E-1    6.539359775066472E-2    2.848095402736106E-3   -1.780196209760382E2

 1.058968676780597E4     5.216931468296553E-3   -1.702697453063690E2     9.988710154152219E-1    3.504547998254863E-1    1.930422909324732E-3   -8.817022008300859E1     1.889483919219304E-3    9.108160330200528E1
                         9.987349823884055E-1    4.894033404971401E-2    4.979327236472227E-3   -1.598581641441815E2     1.862047580200623E-3    9.116682527419773E1     1.918598791287091E-3   -8.885254672127593E1
                         1.916859329684777E-3   -8.841734560407434E1     1.938184855276118E-3    9.101986499574642E1     4.235627894966450E-3    1.673831709188989E2     9.984663610760134E-1    2.441424836550659E-1
                         1.861654097069930E-3    9.044216237063132E1     1.859641994097996E-3   -8.940336117934291E1     9.993131700293692E-1    5.528104173585462E-2    2.829158105701626E-3   -1.796159612091234E2

 1.071343827527961E4     5.315529689907276E-3   -1.720531537432307E2     9.988664609539056E-1    3.478093942360174E-1    1.964217641095108E-3   -8.824244278572064E1     1.898589389698857E-3    9.109654802497347E1
                         9.986759167363332E-1    4.244262131203024E-2    4.981399870560821E-3   -1.628076218420810E2     1.975804734574075E-3    9.142319812838720E1     1.905550072893051E-3   -8.799370916002479E1
                         1.917353476353866E-3   -8.926407123392227E1     1.982639161983082E-3    9.032101293323581E1     4.291157180441862E-3    1.663438305325020E2     9.984850667370853E-1    2.346995009682192E-1
                         1.959905051681339E-3    9.124168002188502E1     1.937733999747141E-3   -8.960201170585364E1     9.991980303297782E-1    5.249938126917361E-2    2.808302838560274E-3    1.747425226514102E2

 1.083863594787007E4     5.307701198355092E-3   -1.728573726555790E2     9.988013042805080E-1    3.275915837482292E-1    1.936935062019297E-3   -8.877736426840725E1     1.926702099314652E-3    9.193534218890773E1
                         9.987095187023806E-1    2.994713374940776E-2    5.013221341020134E-3   -1.631305390156073E2     1.926055319336983E-3    9.074250647273151E1     1.958226895908024E-3   -8.744769257768122E1
                         1.959129110778533E-3   -8.989530696921899E1     2.011566526053593E-3    9.141210945993092E1     4.413444538290717E-3    1.629029394310025E2     9.983905476083117E-1    2.328140451488844E-1
                         1.894605514473560E-3    9.146965452047063E1     1.956351579149099E-3   -8.944733956547215E1     9.992817368058122E-1    4.761952901775402E-2    2.699059371207619E-3    1.717009332812285E2

 1.096529668552141E4     5.106598137629845E-3   -1.757107831455260E2     9.988206709422300E-1    3.196857563407548E-1    1.981341359513073E-3   -8.867615198839711E1     1.936812330874468E-3    9.211765991549369E1
                         9.986311561780663E-1    2.356596130006475E-2    5.000619074736304E-3   -1.674316602323982E2     1.977945346244797E-3    8.979180958507234E1     1.924616140402728E-3   -8.785018713161905E1
                         1.936605326732436E-3   -8.927876385805909E1     2.048746464065803E-3    9.088128274165135E1     4.551316686546508E-3    1.621591717563698E2     9.984208740379308E-1    2.237556231861635E-1
                         1.944124481195856E-3    8.995223210887195E1     1.964575689873814E-3   -8.870573620055762E1     9.991379876364478E-1    3.158453712654688E-2    2.708816545979454E-3    1.693960790032348E2

 1.109343758567100E4     5.149763549391977E-3   -1.764040225024876E2     9.986706739857683E-1    3.125411159095271E-1    1.995826564066978E-3   -8.919750077078190E1     1.959793046883764E-3    9.231714253790265E1
                         9.984766769021516E-1    1.497094885063007E-2    4.917425450092666E-3   -1.697234670266411E2     2.007322378070083E-3    9.004044792864194E1     1.951748836341813E-3   -8.484098690606420E1
                         1.993830381181340E-3   -8.882337378181285E1     2.037910335525094E-3    9.082667206927468E1     4.518516576156774E-3    1.596808223077735E2     9.985081167478684E-1    2.120657526290369E-1
                         1.993897529692308E-3    9.124162462994256E1     2.029587347069681E-3   -8.893445037196339E1     9.991326740188352E-1    2.966579149600198E-2    2.676140964637583E-3    1.667846240669334E2

 1.122307594555760E4     5.141105928664093E-3   -1.797122169047446E2     9.986237347912202E-1    3.082486455413036E-1    2.020019882866311E-3   -9.019384840527974E1     1.992620269530933E-3    9.014174788662031E1
                         9.984589829025070E-1    6.620367646524144E-3    4.829921217450158E-3   -1.710222742882702E2     1.974351828653931E-3    9.092901425357611E1     2.058071037123671E-3   -8.873780961528497E1
                         2.018824882364173E-3   -8.968490546289424E1     2.043234832603143E-3    9.144509791299177E1     4.619039680742389E-3    1.611705059830763E2     9.984475064243955E-1    1.998671011745311E-1
                         2.010821441028948E-3    8.938447490816482E1     2.050076944833036E-3   -9.040320771285697E1     9.990048410308788E-1    2.247029909757551E-2    2.776985190714523E-3    1.624408170430521E2

 1.135422926455626E4     4.926213665501307E-3    1.794561466813730E2     9.985833437920393E-1    3.006357525921733E-1    2.099895663960905E-3   -8.919209428583747E1     2.052149753802482E-3    9.206821501806238E1
                         9.984057575276442E-1   -3.509902341737864E-4    4.963100823392244E-3   -1.742002374402824E2     2.069123405495782E-3    9.186085656736370E1     2.066783576522818E-3   -8.844138932256044E1
                         2.039715475194734E-3   -8.928578386721441E1     2.131745393006336E-3    9.142462761546412E1     4.536157847819568E-3    1.585839586836808E2     9.984835198302855E-1    1.960285673577832E-1
                         2.057447698159670E-3    9.129512853452381E1     2.044151391726135E-3   -8.951051119215229E1     9.990392269600705E-1    2.198618965980843E-2    2.834529133786710E-3    1.603768984492259E2

 1.148691524654033E4     5.172857405191676E-3    1.762484604903153E2     9.985941605543323E-1    2.888397428610524E-1    2.107688280009977E-3   -8.931381744796406E1     2.037282234160752E-3    9.148767580152760E1
                         9.984806795811725E-1   -3.751346633703770E-3    4.711443304099726E-3   -1.750292231996047E2     2.052111784080003E-3    8.974724310803053E1     2.050620873129357E-3   -9.008921088831625E1
                         2.041953164433814E-3   -8.963305028427364E1     2.075552231984084E-3    9.087804520038196E1     4.778069179665972E-3    1.538821421152878E2     9.984990318444116E-1    1.998155624339225E-1
                         2.060620832298373E-3    9.100260623048065E1     2.068904715091368E-3   -9.023560097090717E1     9.989785797277364E-1    1.657774133881627E-2    2.803723836834322E-3    1.610109938385442E2

 1.162115180227141E4     5.252706213974553E-3    1.759573135191068E2     9.986335228355011E-1    2.761637142310704E-1    2.095346199036050E-3   -8.905965802894720E1     2.054349914569365E-3    9.121179635598534E1
