#  HZ   S   MA   R     50.00 
! Rohde & Schwarz Vector Network Analyzer 
! Rohde-Schwarz,ZNB8-4Port,1311601044101622,2.94
! Created: UTC 3/5/2021, 10:33:13 AM
! freq[Hz]                mag:S11                 ang:S11                 mag:S12                 ang:S12                 mag:S13                 ang:S13                 mag:S14                 ang:S14
!                         mag:S21                 ang:S21                 mag:S22                 ang:S22                 mag:S23                 ang:S23                 mag:S24                 ang:S24
!                         mag:S31                 ang:S31                 mag:S32                 ang:S32                 mag:S33                 ang:S33                 mag:S34                 ang:S34
!                         mag:S41                 ang:S41                 mag:S42                 ang:S42                 mag:S43                 ang:S43                 mag:S44                 ang:S44
! 
 9.000000000000000       6.647991607394560E-3   -1.520392389462725E2     9.994438164025367E-1    5.254550519420145E-1    1.587903081894653E-3   -8.697492714262474E1     1.607058983526277E-3    9.288932342473129E1
                         9.999412687092341E-1    1.719524747673975E-1    5.526171247751565E-3   -1.281635352219242E2     1.579206287437996E-3    9.223249838369780E1     1.575813984278150E-3   -8.645911549500752E1
                         1.649662785870558E-3   -9.013597479937043E1     1.679808073975099E-3    9.238877667597680E1     2.447593891518981E-3   -1.458641820107690E2     9.990050610098997E-1    4.151455148042497E-1
                         1.636659755401767E-3    9.087826723417757E1     1.608587428865396E-3   -8.889680605266959E1     1.001026028272019       2.217375858356425E-1    3.334614420021706E-3   -1.426517284701131E2

 9.1                     6.646433567680177E-3   -1.518717826342212E2     9.992352109972216E-1    5.082453689033182E-1    1.652237436486846E-3   -8.896177418631189E1     1.673596984946828E-3    9.341877053755955E1
                         1.000112415204301       1.571522512309322E-1    5.649295107045520E-3   -1.292293100107868E2     1.549064414605169E-3    8.941073239662995E1     1.681793104083092E-3   -8.835694865903665E1
                         1.609762263722777E-3   -8.941258799840908E1     1.678083058348848E-3    9.301408405119068E1     3.396056065824054E-3   -1.627677567391735E2     9.989079320059283E-1    3.807409482124719E-1
                         1.595939796181762E-3    9.244780443751347E1     1.636702366396857E-3   -8.985035074695664E1     1.000583326933669       1.840990170935936E-1    3.321448325711858E-3   -1.342609610570739E2

 9.2                     6.373932195100133E-3   -1.488994569690323E2     9.994275500754055E-1    5.008763975594416E-1    1.675708851916232E-3   -8.834745521415969E1     1.678400662059291E-3    9.038935205382131E1
                         9.999582818134810E-1    1.459456777917523E-1    5.538425102558363E-3   -1.352009324553465E2     1.637726834336061E-3    9.169971767179166E1     1.712930952876806E-3   -8.942693282410451E1
                         1.665295779076456E-3   -9.016659662657432E1     1.717563775744650E-3    8.903193989627563E1     3.591976073662714E-3   -1.711791789651749E2     9.987633781120064E-1    3.672111112472294E-1
                         1.564370185174382E-3    9.179987414571282E1     1.662110516924683E-3   -8.786313555280108E1     1.000302818543799       1.650335597914340E-1    3.266075346656364E-3   -1.373108725308910E2

 9.3                     6.361447749180538E-3   -1.533121267815419E2     9.991396869002555E-1    4.817144891830796E-1    1.701660528833682E-3   -8.933380729832972E1     1.659604695139763E-3    9.135047102805467E1
                         9.999060154733892E-1    1.394603490322519E-1    5.463593330272723E-3   -1.340147043324535E2     1.620183479653691E-3    9.072387847354432E1     1.641789928393056E-3   -8.680664737864527E1
                         1.666676814206646E-3   -9.077028583204438E1     1.729911002353783E-3    9.183363054583485E1     4.134204156984404E-3   -1.740448099016850E2     9.986592143721703E-1    3.570713607392483E-1
                         1.709962557202082E-3    9.114487570907565E1     1.652187823018445E-3   -8.866740026262887E1     1.000091079580383       1.631766130038289E-1    2.901006479734474E-3   -1.452510833010375E2

 9.4                     6.347471235171593E-3   -1.537258741161603E2     9.992067730134772E-1    4.745013761118948E-1    1.648185435659161E-3   -8.835656186800227E1     1.718635995380055E-3    9.224679882498552E1
                         9.997997497797768E-1    1.301036374737674E-1    5.250032146523702E-3   -1.377269686881390E2     1.721682728163948E-3    9.047650420684947E1     1.741611430315548E-3   -8.615234702599959E1
                         1.667623818667938E-3   -9.023050850422818E1     1.779061146515918E-3    8.994397791133066E1     4.072522684196576E-3   -1.783885585691374E2     9.985638143573651E-1    3.395816973548905E-1
                         1.668435616132623E-3    9.091028367749470E1     1.739609924957527E-3   -8.833016301593224E1     9.999949753165558E-1    1.493854069233696E-1    2.932063232649240E-3   -1.450280457401370E2

 9.5                     5.874643550294940E-3   -1.579386139681997E2     9.990765525474876E-1    4.542566481997069E-1    1.711364818222290E-3   -8.894149692278899E1     1.736298985944968E-3    9.184786412511639E1
                         9.996573946107885E-1    1.280644990207579E-1    5.575124987199071E-3   -1.404972993618404E2     1.744004079227365E-3    9.052537587556627E1     1.736814421740824E-3   -8.817638423189425E1
                         1.724604443256389E-3   -9.125772350283711E1     1.783647687732291E-3    9.166671185516690E1     3.991529451798484E-3   -1.796451105676553E2     9.986091954079728E-1    3.352273880828873E-1
                         1.722492636983119E-3    8.984035324206957E1     1.711753824451335E-3   -9.089369488404493E1     9.999660332063954E-1    1.373860444790884E-1    2.809395757296822E-3   -1.483128666835142E2

 9.6                     5.958219737395016E-3   -1.584340872985869E2     9.990408157969108E-1    4.420364235142736E-1    1.736172028368170E-3   -8.830900275274792E1     1.716379277054635E-3    9.256614121924598E1
                         9.996445756898984E-1    1.090736303846445E-1    5.338613326217342E-3   -1.414692045033069E2     1.741197247962855E-3    8.936735091445671E1     1.780921407438374E-3   -8.705767411773915E1
                         1.691368596286506E-3   -8.861640193536715E1     1.784900000292700E-3    9.027129291821507E1     4.144684088682972E-3   -1.791540545303746E2     9.984717000842281E-1    3.247681676551046E-1
                         1.714265929392983E-3    9.225677541389827E1     1.754389588792496E-3   -8.869760541508168E1     9.997715238611222E-1    1.294017384953139E-1    2.873341518128186E-3   -1.545235052363240E2

 9.7                     5.922805017934407E-3   -1.564990665290782E2     9.991024079354761E-1    4.152055154633275E-1    1.765829847964520E-3   -8.788580174241389E1     1.769631932948854E-3    9.249486575558740E1
                         9.995215655754082E-1    1.032243511115040E-1    5.259262172143474E-3   -1.429104577741055E2     1.791675453971232E-3    9.239870516071696E1     1.785077013006607E-3   -8.992074957845574E1
                         1.710612282788583E-3   -8.959476505047110E1     1.858558067426461E-3    9.092091685669068E1     4.159826971169269E-3    1.758856574649138E2     9.985853525014139E-1    3.140788651537656E-1
                         1.704456701417564E-3    9.070461072885058E1     1.748357563387435E-3   -8.948346760916056E1     9.997856904876753E-1    1.124180474415198E-1    2.695808623838011E-3   -1.541994928158360E2

 9.8                     5.831421183892132E-3   -1.565500748724296E2     9.989833748131012E-1    4.148352615169204E-1    1.796577894242693E-3   -8.790313626191316E1     1.788872819996461E-3    9.208022563159338E1
                         9.994516132281835E-1    9.054990000738666E-2    5.171632038584993E-3   -1.470278418015205E2     1.794350741893557E-3    9.257383684791044E1     1.806200123910511E-3   -8.733149663250453E1
                         1.761961736061782E-3   -8.968773092797360E1     1.798157302824911E-3    9.158663543451894E1     4.142098583708117E-3    1.759565549162905E2     9.985761267534912E-1    3.083078136951032E-1
                         1.800682297438437E-3    9.214935191431175E1     1.779266226723288E-3   -8.946643095104045E1     9.996912171057800E-1    1.080908604315554E-1    2.849460876790947E-3   -1.596386254395743E2

 9.9                     5.814431308949873E-3   -1.596854614561810E2     9.988667327237846E-1    4.011041201492587E-1    1.800578712725425E-3   -8.719316521841027E1     1.779041648237480E-3    9.217867973273275E1
                         9.992610913901269E-1    8.487304014396746E-2    4.990174253168746E-3   -1.479748355292321E2     1.748873201505684E-3    9.148636037769580E1     1.808175179922600E-3   -8.796018029099606E1
                         1.781980935340708E-3   -8.929061968665766E1     1.853122774651438E-3    9.045077335532318E1     4.093903829803906E-3    1.783575755573052E2     9.985434037533124E-1    2.839313944588452E-1
                         1.778270962779813E-3    9.047902678148354E1     1.767202234802803E-3   -8.899227456861439E1     9.997403291342225E-1    9.481414030169967E-2    2.949549607557331E-3   -1.644990356375970E2

 1                       5.559099657280482E-3   -1.612011855735605E2     9.988184510103801E-1    4.006066297498309E-1    1.880170644637182E-3   -8.793013587434973E1     1.801298886800314E-3    9.198386042276361E1
                         9.991740647566609E-1    7.218958333259985E-2    5.127887437606114E-3   -1.517656646126686E2     1.840520243742690E-3    9.014671020145910E1     1.823282917390199E-3   -8.865320018995412E1
                         1.843778726905971E-3   -8.974763768180590E1     1.887121473716789E-3    9.091492726508545E1     4.205484580907462E-3    1.720839529369889E2     9.984451802106437E-1    2.805488694839042E-1
                         1.806089559097724E-3    9.252056231458802E1     1.828266616763682E-3   -8.769612203691943E1     9.992549861276179E-1    9.140155536505530E-2    3.066555438660823E-3   -1.651101984856786E2